
T330C 000:313 SEGGER J-Link V4.96d Log File (0000ms, 0279ms total)
T330C 000:313 DLL Compiled: Jan 29 2015 11:45:37 (0000ms, 0279ms total)
T330C 000:313 Logging started @ 2024-12-06 16:13 (0000ms, 0279ms total)
T330C 000:313 JLINK_SetWarnOutHandler(...) (0000ms, 0279ms total)
T330C 000:313 JLINK_OpenEx(...)
Firmware: J-Link ARM V8 compiled Nov 28 2014 13:44:46
Hardware: V8.00
S/N: 99999993
Feature(s): RDI,FlashDL,FlashBP,JFlash,GDBFULL  returns O.K. (0280ms, 0559ms total)
T330C 000:593 JLINK_SetErrorOutHandler(...) (0000ms, 0559ms total)
T330C 000:593 JLINK_ExecCommand("ProjectFile = "D:\LED_KEY_FreeRTOS\LED_KEY_FreeRTOS\MDK-ARM\JLinkSettings.ini"", ...)  returns 0x00 (0002ms, 0561ms total)
T330C 000:595 JLINK_ExecCommand("Device = STM32F103VE", ...)Device "STM32F103VE" selected.  returns 0x00 (0002ms, 0563ms total)
T330C 000:597 JLINK_ExecCommand("DisableConnectionTimeout", ...)  returns 0x01 (0000ms, 0563ms total)
T330C 000:597 JLINK_GetHardwareVersion()  returns 0x13880 (0000ms, 0563ms total)
T330C 000:597 JLINK_GetDLLVersion()  returns 49604 (0000ms, 0563ms total)
T330C 000:597 JLINK_GetFirmwareString(...) (0000ms, 0563ms total)
T330C 000:600 JLINK_GetDLLVersion()  returns 49604 (0000ms, 0563ms total)
T330C 000:600 JLINK_GetCompileDateTime() (0000ms, 0563ms total)
T330C 000:600 JLINK_GetFirmwareString(...) (0000ms, 0563ms total)
T330C 000:600 JLINK_GetHardwareVersion()  returns 0x13880 (0000ms, 0563ms total)
T330C 000:602 JLINK_TIF_Select(JLINKARM_TIF_SWD)  returns 0x00 (0001ms, 0564ms total)
T330C 000:603 JLINK_SetSpeed(20000) (0000ms, 0564ms total)
T330C 000:603 JLINK_GetId() >0x108 TIF>Found SWD-DP with ID 0x1BA01477 >0x0D TIF> >0x28 TIF> >0x0D TIF> >0x28 TIF> >0x0D TIF> >0x21 TIF> >0x0D TIF> >0x28 TIF> >0x0D TIF> >0x28 TIF> >0x0D TIF> >0x28 TIF> >0x0D TIF> >0x21 TIF> >0x0D TIF> >0x21 TIF> >0x0D TIF> >0x28 TIF> >0x0D TIF> >0x21 TIF> >0x0D TIF> >0x21 TIF> >0x108 TIF>Found SWD-DP with ID 0x1BA01477 >0x0D TIF> >0x21 TIF> >0x0D TIF> >0x28 TIF> >0x0D TIF> >0x28 TIF> >0x0D TIF> >0x21 TIF> >0x0D TIF> >0x28 TIF> >0x0D TIF> >0x21 TIF> >0x0D TIF> >0x21 TIF>
 >0x0D TIF> >0x21 TIF> >0x0D TIF> >0x21 TIF> >0x0D TIF> >0x28 TIF> >0x0D TIF> >0x28 TIF> >0x0D TIF> >0x21 TIF> >0x0D TIF> >0x28 TIF> >0x0D TIF> >0x28 TIF> >0x0D TIF> >0x28 TIF> >0x0D TIF> >0x21 TIF> >0x0D TIF> >0x21 TIF> >0x0D TIF> >0x28 TIF> >0x0D TIF> >0x21 TIF> >0x0D TIF> >0x21 TIF>Found Cortex-M3 r1p1, Little endian. -- CPU_WriteMem(4 bytes @ 0xE0002000) -- CPU_ReadMem(4 bytes @ 0xE000EDF0) -- CPU_ReadMem(4 bytes @ 0xE0002000)FPUnit: 6 code (BP) slots and 2 literal slots
 -- CPU_ReadMem(4 bytes @ 0xE000EDFC) -- CPU_ReadMem(4 bytes @ 0xE0001000) -- CPU_WriteMem(4 bytes @ 0xE0001000) -- CPU_ReadMem(4 bytes @ 0xE000ED88) -- CPU_WriteMem(4 bytes @ 0xE000ED88) -- CPU_ReadMem(4 bytes @ 0xE000ED88) -- CPU_WriteMem(4 bytes @ 0xE000ED88) -- CPU_ReadMem(4 bytes @ 0xE00FF010)TPIU fitted. -- CPU_ReadMem(4 bytes @ 0xE00FF014)ETM fitted. -- CPU_ReadMem(4 bytes @ 0xE00FF018) >0x0D TIF> >0x21 TIF>  returns 0x1BA01477 (0033ms, 0597ms total)
T330C 000:636 JLINK_GetDLLVersion()  returns 49604 (0000ms, 0597ms total)
T330C 000:636 JLINK_CORE_GetFound()  returns 0x30000FF (0000ms, 0597ms total)
T330C 000:636 JLINK_GetDebugInfo(0x100) -- Value=0xE00FF003  returns 0x00 (0001ms, 0598ms total)
T330C 000:637 JLINK_ReadMem (0xE00FF000, 0x0020 Bytes, ...) -- CPU is running -- CPU_ReadMem(32 bytes @ 0xE00FF000) - Data: 03 F0 F0 FF 03 20 F0 FF 03 30 F0 FF 03 10 F0 FF ...  returns 0x00 (0001ms, 0599ms total)
T330C 000:638 JLINK_ReadMem (0xE000EFF0, 0x0010 Bytes, ...) -- CPU is running -- CPU_ReadMem(16 bytes @ 0xE000EFF0) - Data: 0D 00 00 00 E0 00 00 00 05 00 00 00 B1 00 00 00  returns 0x00 (0000ms, 0599ms total)
T330C 000:638 JLINK_ReadMem (0xE000EFD0, 0x0020 Bytes, ...) -- CPU is running -- CPU_ReadMem(32 bytes @ 0xE000EFD0) - Data: 04 00 00 00 00 00 00 00 00 00 00 00 00 00 00 00 ...  returns 0x00 (0001ms, 0600ms total)
T330C 000:639 JLINK_ReadMem (0xE0001FF0, 0x0010 Bytes, ...) -- CPU is running -- CPU_ReadMem(16 bytes @ 0xE0001FF0) - Data: 0D 00 00 00 E0 00 00 00 05 00 00 00 B1 00 00 00  returns 0x00 (0001ms, 0601ms total)
T330C 000:640 JLINK_ReadMem (0xE0001FD0, 0x0020 Bytes, ...) -- CPU is running -- CPU_ReadMem(32 bytes @ 0xE0001FD0) - Data: 04 00 00 00 00 00 00 00 00 00 00 00 00 00 00 00 ...  returns 0x00 (0001ms, 0602ms total)
T330C 000:641 JLINK_ReadMem (0xE0002FF0, 0x0010 Bytes, ...) -- CPU is running -- CPU_ReadMem(16 bytes @ 0xE0002FF0) - Data: 0D 00 00 00 E0 00 00 00 05 00 00 00 B1 00 00 00  returns 0x00 (0001ms, 0603ms total)
T330C 000:642 JLINK_ReadMem (0xE0002FD0, 0x0020 Bytes, ...) -- CPU is running -- CPU_ReadMem(32 bytes @ 0xE0002FD0) - Data: 04 00 00 00 00 00 00 00 00 00 00 00 00 00 00 00 ...  returns 0x00 (0001ms, 0604ms total)
T330C 000:643 JLINK_ReadMem (0xE0000FF0, 0x0010 Bytes, ...) -- CPU is running -- CPU_ReadMem(16 bytes @ 0xE0000FF0) - Data: 0D 00 00 00 E0 00 00 00 05 00 00 00 B1 00 00 00  returns 0x00 (0001ms, 0605ms total)
T330C 000:644 JLINK_ReadMem (0xE0000FD0, 0x0020 Bytes, ...) -- CPU is running -- CPU_ReadMem(32 bytes @ 0xE0000FD0) - Data: 04 00 00 00 00 00 00 00 00 00 00 00 00 00 00 00 ...  returns 0x00 (0000ms, 0605ms total)
T330C 000:644 JLINK_ReadMem (0xE0040FF0, 0x0010 Bytes, ...) -- CPU is running -- CPU_ReadMem(16 bytes @ 0xE0040FF0) - Data: 0D 00 00 00 90 00 00 00 05 00 00 00 B1 00 00 00  returns 0x00 (0001ms, 0606ms total)
T330C 000:645 JLINK_ReadMem (0xE0040FD0, 0x0020 Bytes, ...) -- CPU is running -- CPU_ReadMem(32 bytes @ 0xE0040FD0) - Data: 04 00 00 00 00 00 00 00 00 00 00 00 00 00 00 00 ...  returns 0x00 (0001ms, 0607ms total)
T330C 000:646 JLINK_ReadMem (0xE0041FF0, 0x0010 Bytes, ...) -- CPU is running -- CPU_ReadMem(16 bytes @ 0xE0041FF0) - Data: 0D 00 00 00 90 00 00 00 05 00 00 00 B1 00 00 00  returns 0x00 (0001ms, 0608ms total)
T330C 000:647 JLINK_ReadMem (0xE0041FD0, 0x0020 Bytes, ...) -- CPU is running -- CPU_ReadMem(32 bytes @ 0xE0041FD0) - Data: 04 00 00 00 00 00 00 00 00 00 00 00 00 00 00 00 ...  returns 0x00 (0000ms, 0608ms total)
T330C 000:647 JLINK_ReadMemU32(0xE000ED00, 0x0001 Items, ...) -- CPU is running -- CPU_ReadMem(4 bytes @ 0xE000ED00) - Data: 31 C2 1F 41  returns 0x01 (0001ms, 0609ms total)
T330C 000:648 JLINK_SetResetType(JLINKARM_RESET_TYPE_NORMAL)  returns JLINKARM_RESET_TYPE_NORMAL (0000ms, 0609ms total)
T330C 000:648 JLINK_Reset() -- CPU is running -- CPU_WriteMem(4 bytes @ 0xE000EDF0) -- CPU is running -- CPU_WriteMem(4 bytes @ 0xE000EDFC) >0x35 TIF> -- CPU is running -- CPU_WriteMem(4 bytes @ 0xE000ED0C) -- CPU is running -- CPU_ReadMem(4 bytes @ 0xE000EDF0) -- CPU is running -- CPU_ReadMem(4 bytes @ 0xE000EDF0) -- CPU is running -- CPU_WriteMem(4 bytes @ 0xE000EDF0) -- CPU is running -- CPU_WriteMem(4 bytes @ 0xE000EDFC) -- CPU is running -- CPU_ReadMem(4 bytes @ 0xE000EDF0)
 -- CPU_WriteMem(4 bytes @ 0xE0002000) -- CPU_ReadMem(4 bytes @ 0xE000EDFC) -- CPU_ReadMem(4 bytes @ 0xE0001000) (0018ms, 0627ms total)
T330C 000:667 JLINK_ReadReg(R15 (PC))  returns 0x08000264 (0000ms, 0627ms total)
T330C 000:667 JLINK_ReadReg(XPSR)  returns 0x01000000 (0000ms, 0627ms total)
T330C 000:667 JLINK_Halt()  returns 0x00 (0000ms, 0627ms total)
T330C 000:667 JLINK_IsHalted()  returns TRUE (0000ms, 0627ms total)
T330C 000:667 JLINK_ReadMemU32(0xE000EDF0, 0x0001 Items, ...) -- CPU_ReadMem(4 bytes @ 0xE000EDF0) - Data: 03 00 03 00  returns 0x01 (0000ms, 0627ms total)
T330C 000:667 JLINK_WriteU32(0xE000EDF0, 0xA05F0003) -- CPU_WriteMem(4 bytes @ 0xE000EDF0)  returns 0x00 (0001ms, 0628ms total)
T330C 000:668 JLINK_WriteU32(0xE000EDFC, 0x01000000) -- CPU_WriteMem(4 bytes @ 0xE000EDFC)  returns 0x00 (0001ms, 0629ms total)
T330C 000:669 JLINK_GetHWStatus(...)  returns 0x00 (0001ms, 0630ms total)
T330C 000:670 JLINK_GetNumBPUnits(Type = 0xFFFFFF00)  returns 0x06 (0000ms, 0630ms total)
T330C 000:670 JLINK_GetNumBPUnits(Type = 0xF0)  returns 0x2000 (0000ms, 0630ms total)
T330C 000:670 JLINK_GetNumWPUnits()  returns 0x04 (0000ms, 0630ms total)
T330C 000:670 JLINK_GetSpeed()  returns 0xFA0 (0000ms, 0630ms total)
T330C 000:671 JLINK_ReadMemU32(0xE000E004, 0x0001 Items, ...) -- CPU_ReadMem(4 bytes @ 0xE000E004) - Data: 01 00 00 00  returns 0x01 (0000ms, 0630ms total)
T330C 000:671 JLINK_ReadMemU32(0xE000E004, 0x0001 Items, ...) -- CPU_ReadMem(4 bytes @ 0xE000E004) - Data: 01 00 00 00  returns 0x01 (0001ms, 0631ms total)
T330C 000:672 JLINK_WriteMem(0xE0001000, 0x001C Bytes, ...) - Data: 01 00 00 00 00 00 00 00 00 00 00 00 00 00 00 00 ... -- CPU_WriteMem(28 bytes @ 0xE0001000)  returns 0x1C (0001ms, 0632ms total)
T330C 000:673 JLINK_ReadMem (0xE0001000, 0x001C Bytes, ...) -- CPU_ReadMem(28 bytes @ 0xE0001000) - Data: 01 00 00 40 00 00 00 00 00 00 00 00 00 00 00 00 ...  returns 0x00 (0000ms, 0632ms total)
T330C 000:673 JLINK_ReadReg(R15 (PC))  returns 0x08000264 (0000ms, 0632ms total)
T330C 000:673 JLINK_ReadReg(XPSR)  returns 0x01000000 (0000ms, 0632ms total)
T330C 000:775 JLINK_SetResetType(JLINKARM_RESET_TYPE_NORMAL)  returns JLINKARM_RESET_TYPE_NORMAL (0000ms, 0632ms total)
T330C 000:775 JLINK_Reset() -- CPU_WriteMem(4 bytes @ 0xE000EDF0) -- CPU_WriteMem(4 bytes @ 0xE000EDFC) >0x35 TIF> -- CPU_WriteMem(4 bytes @ 0xE000ED0C) -- CPU_ReadMem(4 bytes @ 0xE000EDF0) -- CPU_ReadMem(4 bytes @ 0xE000EDF0) -- CPU_WriteMem(4 bytes @ 0xE000EDF0) -- CPU_WriteMem(4 bytes @ 0xE000EDFC) -- CPU is running -- CPU_ReadMem(4 bytes @ 0xE000EDF0) -- CPU_WriteMem(4 bytes @ 0xE0002000) -- CPU_ReadMem(4 bytes @ 0xE000EDFC) -- CPU_ReadMem(4 bytes @ 0xE0001000) (0019ms, 0651ms total)
T330C 000:795 JLINK_ReadReg(R15 (PC))  returns 0x08000264 (0000ms, 0651ms total)
T330C 000:795 JLINK_ReadReg(XPSR)  returns 0x01000000 (0000ms, 0651ms total)
T330C 000:795 JLINK_ReadMem (0x0800016C, 0x003C Bytes, ...) -- CPU_ReadMem(128 bytes @ 0x08000140) -- Updating C cache (128 bytes @ 0x08000140) -- Read from C cache (60 bytes @ 0x0800016C) - Data: 10 3A 24 BF 78 C8 78 C1 FA D8 52 07 24 BF 30 C8 ...  returns 0x00 (0002ms, 0653ms total)
T330C 000:797 JLINK_ReadMem (0x080001A8, 0x003C Bytes, ...) -- CPU_ReadMem(64 bytes @ 0x080001C0) -- Updating C cache (64 bytes @ 0x080001C0) -- Read from C cache (60 bytes @ 0x080001A8) - Data: 10 B5 10 BD 00 F0 45 F9 11 46 FF F7 F7 FF 01 F0 ...  returns 0x00 (0001ms, 0654ms total)
T330C 000:798 JLINK_ReadMem (0x080001E4, 0x003C Bytes, ...) -- CPU_ReadMem(64 bytes @ 0x08000200) -- Updating C cache (64 bytes @ 0x08000200) -- Read from C cache (60 bytes @ 0x080001E4) - Data: 11 88 4E F0 0D 0E 70 47 00 00 00 00 06 48 00 68 ...  returns 0x00 (0001ms, 0655ms total)
T330C 000:799 JLINK_ReadMem (0x08000220, 0x003C Bytes, ...) -- CPU_ReadMem(64 bytes @ 0x08000240) -- Updating C cache (64 bytes @ 0x08000240) -- Read from C cache (60 bytes @ 0x08000220) - Data: 10 60 08 B5 4F F0 50 00 80 F3 11 88 BF F3 4F 8F ...  returns 0x00 (0001ms, 0656ms total)
T330C 000:800 JLINK_ReadMem (0x0800025C, 0x003C Bytes, ...) -- CPU_ReadMem(64 bytes @ 0x08000280) -- Updating C cache (64 bytes @ 0x08000280) -- Read from C cache (60 bytes @ 0x0800025C) - Data: EF F3 05 80 70 47 00 00 09 48 80 47 09 48 00 47 ...  returns 0x00 (0000ms, 0656ms total)
T4054 006:974 JLINK_SetBPEx(Addr = 0x080017D6, Type = 0xFFFFFFF2)  returns 0x00000001 (0000ms, 0656ms total)
T4054 006:974 JLINK_SetBPEx(Addr = 0x080015DC, Type = 0xFFFFFFF2)  returns 0x00000002 (0000ms, 0656ms total)
T4054 006:974 JLINK_SetBPEx(Addr = 0x080015DA, Type = 0xFFFFFFF2)  returns 0x00000003 (0000ms, 0656ms total)
T4054 006:974 JLINK_SetBPEx(Addr = 0x080015D2, Type = 0xFFFFFFF2)  returns 0x00000004 (0000ms, 0656ms total)
T4054 006:974 JLINK_SetBPEx(Addr = 0x080015CE, Type = 0xFFFFFFF2)  returns 0x00000005 (0000ms, 0656ms total)
T4054 006:974 JLINK_SetBPEx(Addr = 0x080015C8, Type = 0xFFFFFFF2)  returns 0x00000006 (0000ms, 0656ms total)
T4054 006:974 JLINK_SetBPEx(Addr = 0x080015C4, Type = 0xFFFFFFF2) -- BP[0] @ 0x080017D6 converted into FlashBP  returns 0x00000007 (0000ms, 0656ms total)
T4054 006:974 JLINK_Go() -- Read from C cache (2 bytes @ 0x08000264) -- Read from C cache (4 bytes @ 0x0800028C) -- Simulated -- Read from C cache (2 bytes @ 0x08000266) -- Simulated -- CPU_ReadMem(64 bytes @ 0x08001680) -- Updating C cache (64 bytes @ 0x08001680) -- Read from C cache (2 bytes @ 0x08001684) -- CPU_ReadMem(64 bytes @ 0x080016C0) -- Updating C cache (64 bytes @ 0x080016C0) -- Read from C cache (4 bytes @ 0x080016CC) -- Simulated -- Read from C cache (2 bytes @ 0x08001686) -- Not simulated
 -- CPU_ReadMem(1664 bytes @ 0x08001000) -- Updating C cache (1664 bytes @ 0x08001000) -- CPU_ReadMem(256 bytes @ 0x08001700) -- Updating C cache (256 bytes @ 0x08001700) -- Read from C cache (2048 bytes @ 0x08001000) -- Updating flash cache (2048 bytes @ 0x08001000) -- Programming range 0x08001000 - 0x080017FF (001 Sector, 2 KB) -- CPU clock frequency: 7998 kHz -- CPU_WriteMem(4 bytes @ 0xE0002000) -- CPU_WriteMem(4 bytes @ 0xE0002000) -- CPU_WriteMem(4 bytes @ 0xE0002000)
 -- CPU_WriteMem(4 bytes @ 0xE0002000) -- CPU_WriteMem(4 bytes @ 0xE0002000) -- CPU_WriteMem(4 bytes @ 0xE0002000) -- CPU_WriteMem(4 bytes @ 0xE0002008) -- CPU_WriteMem(4 bytes @ 0xE000200C) -- CPU_WriteMem(4 bytes @ 0xE0002010) -- CPU_WriteMem(4 bytes @ 0xE0002014) -- CPU_WriteMem(4 bytes @ 0xE0002018) -- CPU_WriteMem(4 bytes @ 0xE000201C) (0265ms, 0921ms total)
T4054 007:340 JLINK_IsHalted()  returns TRUE (0002ms, 0923ms total)
T4054 007:342 JLINK_Halt()  returns 0x00 (0000ms, 0921ms total)
T4054 007:342 JLINK_IsHalted()  returns TRUE (0000ms, 0921ms total)
T4054 007:342 JLINK_IsHalted()  returns TRUE (0000ms, 0921ms total)
T4054 007:343 JLINK_IsHalted()  returns TRUE (0000ms, 0921ms total)
T4054 007:343 JLINK_ReadReg(R15 (PC))  returns 0x080017D6 (0000ms, 0921ms total)
T4054 007:343 JLINK_ReadReg(XPSR)  returns 0x21000000 (0000ms, 0921ms total)
T4054 007:343 JLINK_ClrBPEx(BPHandle = 0x00000001)  returns 0x00 (0000ms, 0921ms total)
T4054 007:343 JLINK_ClrBPEx(BPHandle = 0x00000002)  returns 0x00 (0000ms, 0921ms total)
T4054 007:343 JLINK_ClrBPEx(BPHandle = 0x00000003)  returns 0x00 (0000ms, 0921ms total)
T4054 007:343 JLINK_ClrBPEx(BPHandle = 0x00000004)  returns 0x00 (0000ms, 0921ms total)
T4054 007:343 JLINK_ClrBPEx(BPHandle = 0x00000005)  returns 0x00 (0000ms, 0921ms total)
T4054 007:343 JLINK_ClrBPEx(BPHandle = 0x00000006)  returns 0x00 (0000ms, 0921ms total)
T4054 007:343 JLINK_ClrBPEx(BPHandle = 0x00000007)  returns 0x00 (0000ms, 0921ms total)
T4054 007:343 JLINK_ReadMemU32(0xE000ED30, 0x0001 Items, ...) -- CPU_ReadMem(4 bytes @ 0xE000ED30) - Data: 03 00 00 00  returns 0x01 (0001ms, 0922ms total)
T4054 007:344 JLINK_ReadMemU32(0xE0001028, 0x0001 Items, ...) -- CPU_ReadMem(4 bytes @ 0xE0001028) - Data: 00 00 00 00  returns 0x01 (0000ms, 0922ms total)
T4054 007:344 JLINK_ReadMemU32(0xE0001038, 0x0001 Items, ...) -- CPU_ReadMem(4 bytes @ 0xE0001038) - Data: 00 02 00 00  returns 0x01 (0001ms, 0923ms total)
T4054 007:345 JLINK_ReadMemU32(0xE0001048, 0x0001 Items, ...) -- CPU_ReadMem(4 bytes @ 0xE0001048) - Data: 00 00 00 00  returns 0x01 (0000ms, 0923ms total)
T4054 007:345 JLINK_ReadMemU32(0xE0001058, 0x0001 Items, ...) -- CPU_ReadMem(4 bytes @ 0xE0001058) - Data: 00 00 00 00  returns 0x01 (0001ms, 0924ms total)
T4054 007:346 JLINK_ReadReg(R0)  returns 0x20001A08 (0000ms, 0924ms total)
T4054 007:346 JLINK_ReadReg(R1)  returns 0x20001C08 (0000ms, 0924ms total)
T4054 007:346 JLINK_ReadReg(R2)  returns 0x20001C08 (0000ms, 0924ms total)
T4054 007:346 JLINK_ReadReg(R3)  returns 0x20001C08 (0000ms, 0924ms total)
T4054 007:346 JLINK_ReadReg(R4)  returns 0x00000000 (0000ms, 0924ms total)
T4054 007:346 JLINK_ReadReg(R5)  returns 0x200019A8 (0000ms, 0924ms total)
T4054 007:346 JLINK_ReadReg(R6)  returns 0x00000000 (0000ms, 0924ms total)
T4054 007:346 JLINK_ReadReg(R7)  returns 0x00000000 (0000ms, 0924ms total)
T4054 007:346 JLINK_ReadReg(R8)  returns 0x00000000 (0000ms, 0924ms total)
T4054 007:346 JLINK_ReadReg(R9)  returns 0xA5A5A5A5 (0000ms, 0924ms total)
T4054 007:346 JLINK_ReadReg(R10)  returns 0x08003BD8 (0001ms, 0925ms total)
T4054 007:347 JLINK_ReadReg(R11)  returns 0x00000000 (0000ms, 0925ms total)
T4054 007:347 JLINK_ReadReg(R12)  returns 0x200019E8 (0000ms, 0925ms total)
T4054 007:347 JLINK_ReadReg(R13 (SP))  returns 0x20002008 (0000ms, 0925ms total)
T4054 007:347 JLINK_ReadReg(R14)  returns 0x080001BB (0000ms, 0925ms total)
T4054 007:347 JLINK_ReadReg(R15 (PC))  returns 0x080017D6 (0000ms, 0925ms total)
T4054 007:347 JLINK_ReadReg(XPSR)  returns 0x21000000 (0000ms, 0925ms total)
T4054 007:347 JLINK_ReadReg(MSP)  returns 0x20002008 (0000ms, 0925ms total)
T4054 007:347 JLINK_ReadReg(PSP)  returns 0x20000940 (0000ms, 0925ms total)
T4054 007:347 JLINK_ReadReg(CFBP)  returns 0x00000000 (0000ms, 0925ms total)
T330C 007:351 JLINK_ReadMemU32(0xE0001004, 0x0001 Items, ...) -- CPU_ReadMem(4 bytes @ 0xE0001004) - Data: 5A 24 0B 00  returns 0x01 (0000ms, 0925ms total)
T330C 007:359 JLINK_ReadMem (0x080017D4, 0x002C Bytes, ...) -- Read from flash cache (44 bytes @ 0x080017D4) -- Merging zombie BP[0]: 0xF7FF @ 0x080017D6 - Data: 70 47 FF F7 2D F8 FF F7 1F FF FF F7 DD FD 00 F0 ...  returns 0x00 (0000ms, 0925ms total)
T330C 007:359 JLINK_ReadMem (0x08001800, 0x0010 Bytes, ...) -- CPU_ReadMem(64 bytes @ 0x08001800) -- Updating C cache (64 bytes @ 0x08001800) -- Read from C cache (16 bytes @ 0x08001800) - Data: E7 FF 30 B9 08 48 00 68 02 28 05 D1 FF F7 DA FF  returns 0x00 (0001ms, 0926ms total)
T4054 013:468 JLINK_SetBPEx(Addr = 0x080015DC, Type = 0xFFFFFFF2)  returns 0x00000008 (0000ms, 0926ms total)
T4054 013:468 JLINK_SetBPEx(Addr = 0x080015DA, Type = 0xFFFFFFF2)  returns 0x00000009 (0000ms, 0926ms total)
T4054 013:468 JLINK_SetBPEx(Addr = 0x080015D2, Type = 0xFFFFFFF2)  returns 0x0000000A (0000ms, 0926ms total)
T4054 013:468 JLINK_SetBPEx(Addr = 0x080015CE, Type = 0xFFFFFFF2)  returns 0x0000000B (0000ms, 0926ms total)
T4054 013:468 JLINK_SetBPEx(Addr = 0x080015C8, Type = 0xFFFFFFF2)  returns 0x0000000C (0000ms, 0926ms total)
T4054 013:468 JLINK_SetBPEx(Addr = 0x080015C4, Type = 0xFFFFFFF2)  returns 0x0000000D (0000ms, 0926ms total)
T4054 013:468 JLINK_Go() -- Merging zombie BP[0]: 0xF7FF @ 0x080017D6 -- Merging zombie BP[0]: 0xF7FF @ 0x080017D6 -- Read from flash cache (2 bytes @ 0x080017D8) -- Simulated -- CPU_ReadMem(64 bytes @ 0x08000800) -- Updating C cache (64 bytes @ 0x08000800) -- Read from C cache (2 bytes @ 0x08000834) -- CPU_WriteMem(8 bytes @ 0x20002000) -- Simulated -- Read from C cache (2 bytes @ 0x08000836) -- CPU_ReadMem(64 bytes @ 0x08000840) -- Updating C cache (64 bytes @ 0x08000840)
 -- Read from C cache (4 bytes @ 0x08000858) -- Simulated -- Read from C cache (2 bytes @ 0x08000838) -- Not simulated -- Read from flash cache (2048 bytes @ 0x08001000) -- Programming range 0x08001000 - 0x080017FF (001 Sector, 2 KB) -- CPU clock frequency: 8003 kHz -- CPU_WriteMem(4 bytes @ 0xE0002000) -- CPU_WriteMem(4 bytes @ 0xE0002000) -- CPU_WriteMem(4 bytes @ 0xE0002000) -- CPU_WriteMem(4 bytes @ 0xE0002000) -- CPU_WriteMem(4 bytes @ 0xE0002000) -- CPU_WriteMem(4 bytes @ 0xE0002000)
 -- CPU_WriteMem(4 bytes @ 0xE0002008) -- CPU_WriteMem(4 bytes @ 0xE000200C) -- CPU_WriteMem(4 bytes @ 0xE0002010) -- CPU_WriteMem(4 bytes @ 0xE0002014) -- CPU_WriteMem(4 bytes @ 0xE0002018) -- CPU_WriteMem(4 bytes @ 0xE000201C) (0241ms, 1167ms total)
T4054 013:810 JLINK_IsHalted()  returns TRUE (0002ms, 1169ms total)
T4054 013:812 JLINK_Halt()  returns 0x00 (0000ms, 1167ms total)
T4054 013:812 JLINK_IsHalted()  returns TRUE (0000ms, 1167ms total)
T4054 013:812 JLINK_IsHalted()  returns TRUE (0000ms, 1167ms total)
T4054 013:812 JLINK_IsHalted()  returns TRUE (0000ms, 1167ms total)
T4054 013:812 JLINK_ReadReg(R15 (PC))  returns 0x080015C4 (0000ms, 1167ms total)
T4054 013:812 JLINK_ReadReg(XPSR)  returns 0xA1000000 (0000ms, 1167ms total)
T4054 013:812 JLINK_ClrBPEx(BPHandle = 0x00000008)  returns 0x00 (0000ms, 1167ms total)
T4054 013:812 JLINK_ClrBPEx(BPHandle = 0x00000009)  returns 0x00 (0000ms, 1167ms total)
T4054 013:812 JLINK_ClrBPEx(BPHandle = 0x0000000A)  returns 0x00 (0000ms, 1167ms total)
T4054 013:812 JLINK_ClrBPEx(BPHandle = 0x0000000B)  returns 0x00 (0000ms, 1167ms total)
T4054 013:812 JLINK_ClrBPEx(BPHandle = 0x0000000C)  returns 0x00 (0001ms, 1168ms total)
T4054 013:813 JLINK_ClrBPEx(BPHandle = 0x0000000D)  returns 0x00 (0000ms, 1168ms total)
T4054 013:813 JLINK_ReadMemU32(0xE000ED30, 0x0001 Items, ...) -- CPU_ReadMem(4 bytes @ 0xE000ED30) - Data: 03 00 00 00  returns 0x01 (0000ms, 1168ms total)
T4054 013:813 JLINK_ReadMemU32(0xE0001028, 0x0001 Items, ...) -- CPU_ReadMem(4 bytes @ 0xE0001028) - Data: 00 00 00 00  returns 0x01 (0001ms, 1169ms total)
T4054 013:814 JLINK_ReadMemU32(0xE0001038, 0x0001 Items, ...) -- CPU_ReadMem(4 bytes @ 0xE0001038) - Data: 00 02 00 00  returns 0x01 (0001ms, 1170ms total)
T4054 013:815 JLINK_ReadMemU32(0xE0001048, 0x0001 Items, ...) -- CPU_ReadMem(4 bytes @ 0xE0001048) - Data: 00 00 00 00  returns 0x01 (0000ms, 1170ms total)
T4054 013:815 JLINK_ReadMemU32(0xE0001058, 0x0001 Items, ...) -- CPU_ReadMem(4 bytes @ 0xE0001058) - Data: 00 00 00 00  returns 0x01 (0001ms, 1171ms total)
T4054 013:816 JLINK_ReadReg(R0)  returns 0xFFFFFFFE (0000ms, 1171ms total)
T4054 013:816 JLINK_ReadReg(R1)  returns 0x20000088 (0000ms, 1171ms total)
T4054 013:816 JLINK_ReadReg(R2)  returns 0x00000000 (0000ms, 1171ms total)
T4054 013:816 JLINK_ReadReg(R3)  returns 0x00000000 (0001ms, 1172ms total)
T4054 013:817 JLINK_ReadReg(R4)  returns 0x00000001 (0000ms, 1172ms total)
T4054 013:817 JLINK_ReadReg(R5)  returns 0x00000001 (0000ms, 1172ms total)
T4054 013:817 JLINK_ReadReg(R6)  returns 0xA5A5A5A5 (0000ms, 1172ms total)
T4054 013:817 JLINK_ReadReg(R7)  returns 0xA5A5A5A5 (0000ms, 1172ms total)
T4054 013:817 JLINK_ReadReg(R8)  returns 0xA5A5A5A5 (0000ms, 1172ms total)
T4054 013:817 JLINK_ReadReg(R9)  returns 0xA5A5A5A5 (0000ms, 1172ms total)
T4054 013:817 JLINK_ReadReg(R10)  returns 0xA5A5A5A5 (0000ms, 1172ms total)
T4054 013:817 JLINK_ReadReg(R11)  returns 0xA5A5A5A5 (0000ms, 1172ms total)
T4054 013:817 JLINK_ReadReg(R12)  returns 0xA5A5A5A5 (0000ms, 1172ms total)
T4054 013:817 JLINK_ReadReg(R13 (SP))  returns 0x20001218 (0000ms, 1172ms total)
T4054 013:817 JLINK_ReadReg(R14)  returns 0x080037CD (0000ms, 1172ms total)
T4054 013:817 JLINK_ReadReg(R15 (PC))  returns 0x080015C4 (0000ms, 1172ms total)
T4054 013:817 JLINK_ReadReg(XPSR)  returns 0xA1000000 (0000ms, 1172ms total)
T4054 013:817 JLINK_ReadReg(MSP)  returns 0x20001FE8 (0000ms, 1172ms total)
T4054 013:817 JLINK_ReadReg(PSP)  returns 0x20001218 (0000ms, 1172ms total)
T4054 013:817 JLINK_ReadReg(CFBP)  returns 0x02000000 (0000ms, 1172ms total)
T330C 013:819 JLINK_ReadMemU32(0xE0001004, 0x0001 Items, ...) -- CPU_ReadMem(4 bytes @ 0xE0001004) - Data: 51 D5 83 00  returns 0x01 (0000ms, 1172ms total)
T330C 013:832 JLINK_ReadMem (0x080015C2, 0x0002 Bytes, ...) -- Read from flash cache (2 bytes @ 0x080015C2) - Data: 35 B1  returns 0x00 (0000ms, 1172ms total)
T330C 013:832 JLINK_ReadMem (0x080015C4, 0x003C Bytes, ...) -- Read from flash cache (60 bytes @ 0x080015C4) - Data: 04 2C 02 DA 60 06 04 0E 06 E0 01 24 04 E0 01 2C ...  returns 0x00 (0000ms, 1172ms total)
T4054 042:173 JLINK_Step() -- Read from flash cache (2 bytes @ 0x080015C4) -- Simulated  returns 0x00 (0000ms, 1172ms total)
T4054 042:173 JLINK_ReadReg(R15 (PC))  returns 0x080015C6 (0001ms, 1173ms total)
T4054 042:174 JLINK_ReadReg(XPSR)  returns 0x81000000 (0000ms, 1173ms total)
T4054 042:174 JLINK_SetBPEx(Addr = 0x080015DC, Type = 0xFFFFFFF2)  returns 0x0000000E (0000ms, 1173ms total)
T4054 042:174 JLINK_SetBPEx(Addr = 0x080015DA, Type = 0xFFFFFFF2)  returns 0x0000000F (0000ms, 1173ms total)
T4054 042:174 JLINK_SetBPEx(Addr = 0x080015D2, Type = 0xFFFFFFF2)  returns 0x00000010 (0000ms, 1173ms total)
T4054 042:174 JLINK_SetBPEx(Addr = 0x080015CE, Type = 0xFFFFFFF2)  returns 0x00000011 (0000ms, 1173ms total)
T4054 042:174 JLINK_SetBPEx(Addr = 0x080015C8, Type = 0xFFFFFFF2)  returns 0x00000012 (0000ms, 1173ms total)
T4054 042:174 JLINK_SetBPEx(Addr = 0x080015C4, Type = 0xFFFFFFF2)  returns 0x00000013 (0000ms, 1173ms total)
T4054 042:174 JLINK_Go() -- CPU_WriteMem(4 bytes @ 0xE0002000) -- CPU_WriteMem(4 bytes @ 0xE0002000) -- CPU_WriteMem(4 bytes @ 0xE0002000) -- CPU_WriteMem(4 bytes @ 0xE0002000) -- CPU_WriteMem(4 bytes @ 0xE0002000) -- CPU_WriteMem(4 bytes @ 0xE0002000) -- CPU_WriteMem(4 bytes @ 0xE0001004) (0004ms, 1177ms total)
T4054 042:278 JLINK_IsHalted()  returns TRUE (0003ms, 1180ms total)
T4054 042:281 JLINK_Halt()  returns 0x00 (0000ms, 1177ms total)
T4054 042:281 JLINK_IsHalted()  returns TRUE (0000ms, 1177ms total)
T4054 042:281 JLINK_IsHalted()  returns TRUE (0000ms, 1177ms total)
T4054 042:281 JLINK_IsHalted()  returns TRUE (0000ms, 1177ms total)
T4054 042:281 JLINK_ReadReg(R15 (PC))  returns 0x080015C8 (0000ms, 1177ms total)
T4054 042:281 JLINK_ReadReg(XPSR)  returns 0x81000000 (0000ms, 1177ms total)
T4054 042:282 JLINK_ClrBPEx(BPHandle = 0x0000000E)  returns 0x00 (0000ms, 1178ms total)
T4054 042:282 JLINK_ClrBPEx(BPHandle = 0x0000000F)  returns 0x00 (0000ms, 1178ms total)
T4054 042:282 JLINK_ClrBPEx(BPHandle = 0x00000010)  returns 0x00 (0000ms, 1178ms total)
T4054 042:282 JLINK_ClrBPEx(BPHandle = 0x00000011)  returns 0x00 (0000ms, 1178ms total)
T4054 042:282 JLINK_ClrBPEx(BPHandle = 0x00000012)  returns 0x00 (0000ms, 1178ms total)
T4054 042:282 JLINK_ClrBPEx(BPHandle = 0x00000013)  returns 0x00 (0000ms, 1178ms total)
T4054 042:282 JLINK_ReadMemU32(0xE000ED30, 0x0001 Items, ...) -- CPU_ReadMem(4 bytes @ 0xE000ED30) - Data: 03 00 00 00  returns 0x01 (0001ms, 1179ms total)
T4054 042:283 JLINK_ReadMemU32(0xE0001028, 0x0001 Items, ...) -- CPU_ReadMem(4 bytes @ 0xE0001028) - Data: 00 00 00 00  returns 0x01 (0001ms, 1180ms total)
T4054 042:284 JLINK_ReadMemU32(0xE0001038, 0x0001 Items, ...) -- CPU_ReadMem(4 bytes @ 0xE0001038) - Data: 00 02 00 00  returns 0x01 (0001ms, 1181ms total)
T4054 042:285 JLINK_ReadMemU32(0xE0001048, 0x0001 Items, ...) -- CPU_ReadMem(4 bytes @ 0xE0001048) - Data: 00 00 00 00  returns 0x01 (0000ms, 1181ms total)
T4054 042:285 JLINK_ReadMemU32(0xE0001058, 0x0001 Items, ...) -- CPU_ReadMem(4 bytes @ 0xE0001058) - Data: 00 00 00 00  returns 0x01 (0001ms, 1182ms total)
T4054 042:286 JLINK_ReadReg(R0)  returns 0xFFFFFFFE (0000ms, 1182ms total)
T4054 042:286 JLINK_ReadReg(R1)  returns 0x20000088 (0000ms, 1182ms total)
T4054 042:286 JLINK_ReadReg(R2)  returns 0x00000000 (0001ms, 1183ms total)
T4054 042:287 JLINK_ReadReg(R3)  returns 0x00000000 (0000ms, 1183ms total)
T4054 042:287 JLINK_ReadReg(R4)  returns 0x00000001 (0000ms, 1183ms total)
T4054 042:287 JLINK_ReadReg(R5)  returns 0x00000001 (0000ms, 1183ms total)
T4054 042:287 JLINK_ReadReg(R6)  returns 0xA5A5A5A5 (0000ms, 1183ms total)
T4054 042:287 JLINK_ReadReg(R7)  returns 0xA5A5A5A5 (0000ms, 1183ms total)
T4054 042:287 JLINK_ReadReg(R8)  returns 0xA5A5A5A5 (0000ms, 1183ms total)
T4054 042:287 JLINK_ReadReg(R9)  returns 0xA5A5A5A5 (0000ms, 1183ms total)
T4054 042:287 JLINK_ReadReg(R10)  returns 0xA5A5A5A5 (0000ms, 1183ms total)
T4054 042:287 JLINK_ReadReg(R11)  returns 0xA5A5A5A5 (0000ms, 1183ms total)
T4054 042:287 JLINK_ReadReg(R12)  returns 0xA5A5A5A5 (0000ms, 1183ms total)
T4054 042:287 JLINK_ReadReg(R13 (SP))  returns 0x20001218 (0000ms, 1183ms total)
T4054 042:288 JLINK_ReadReg(R14)  returns 0x080037CD (0000ms, 1183ms total)
T4054 042:288 JLINK_ReadReg(R15 (PC))  returns 0x080015C8 (0000ms, 1183ms total)
T4054 042:288 JLINK_ReadReg(XPSR)  returns 0x81000000 (0000ms, 1183ms total)
T4054 042:288 JLINK_ReadReg(MSP)  returns 0x20001FE8 (0000ms, 1183ms total)
T4054 042:288 JLINK_ReadReg(PSP)  returns 0x20001218 (0000ms, 1183ms total)
T4054 042:288 JLINK_ReadReg(CFBP)  returns 0x02000000 (0000ms, 1183ms total)
T330C 042:291 JLINK_ReadMemU32(0xE0001004, 0x0001 Items, ...) -- CPU_ReadMem(4 bytes @ 0xE0001004) - Data: 4A D6 83 00  returns 0x01 (0001ms, 1184ms total)
T330C 042:311 JLINK_ReadMem (0x080015C4, 0x003C Bytes, ...) -- Read from flash cache (60 bytes @ 0x080015C4) - Data: 04 2C 02 DA 60 06 04 0E 06 E0 01 24 04 E0 01 2C ...  returns 0x00 (0000ms, 1184ms total)
T4054 045:541 JLINK_Step() -- Read from flash cache (2 bytes @ 0x080015C8) -- Simulated  returns 0x00 (0001ms, 1185ms total)
T4054 045:542 JLINK_ReadReg(R15 (PC))  returns 0x080015CA (0000ms, 1185ms total)
T4054 045:542 JLINK_ReadReg(XPSR)  returns 0x01000000 (0000ms, 1185ms total)
T4054 045:542 JLINK_SetBPEx(Addr = 0x080015DC, Type = 0xFFFFFFF2)  returns 0x00000014 (0000ms, 1185ms total)
T4054 045:542 JLINK_SetBPEx(Addr = 0x080015DA, Type = 0xFFFFFFF2)  returns 0x00000015 (0000ms, 1185ms total)
T4054 045:542 JLINK_SetBPEx(Addr = 0x080015D2, Type = 0xFFFFFFF2)  returns 0x00000016 (0000ms, 1185ms total)
T4054 045:542 JLINK_SetBPEx(Addr = 0x080015CE, Type = 0xFFFFFFF2)  returns 0x00000017 (0000ms, 1185ms total)
T4054 045:542 JLINK_SetBPEx(Addr = 0x080015C8, Type = 0xFFFFFFF2)  returns 0x00000018 (0000ms, 1185ms total)
T4054 045:542 JLINK_SetBPEx(Addr = 0x080015C4, Type = 0xFFFFFFF2)  returns 0x00000019 (0000ms, 1185ms total)
T4054 045:542 JLINK_Go() -- CPU_WriteMem(4 bytes @ 0xE0002000) -- CPU_WriteMem(4 bytes @ 0xE0002000) -- CPU_WriteMem(4 bytes @ 0xE0002000) -- CPU_WriteMem(4 bytes @ 0xE0002000) -- CPU_WriteMem(4 bytes @ 0xE0002000) -- CPU_WriteMem(4 bytes @ 0xE0002000) -- CPU_WriteMem(4 bytes @ 0xE0001004) (0004ms, 1189ms total)
T4054 045:646 JLINK_IsHalted()  returns TRUE (0003ms, 1192ms total)
T4054 045:649 JLINK_Halt()  returns 0x00 (0000ms, 1189ms total)
T4054 045:649 JLINK_IsHalted()  returns TRUE (0000ms, 1189ms total)
T4054 045:649 JLINK_IsHalted()  returns TRUE (0000ms, 1189ms total)
T4054 045:649 JLINK_IsHalted()  returns TRUE (0000ms, 1189ms total)
T4054 045:649 JLINK_ReadReg(R15 (PC))  returns 0x080015DC (0000ms, 1189ms total)
T4054 045:649 JLINK_ReadReg(XPSR)  returns 0x01000000 (0001ms, 1190ms total)
T4054 045:650 JLINK_ClrBPEx(BPHandle = 0x00000014)  returns 0x00 (0000ms, 1190ms total)
T4054 045:650 JLINK_ClrBPEx(BPHandle = 0x00000015)  returns 0x00 (0000ms, 1190ms total)
T4054 045:650 JLINK_ClrBPEx(BPHandle = 0x00000016)  returns 0x00 (0000ms, 1190ms total)
T4054 045:650 JLINK_ClrBPEx(BPHandle = 0x00000017)  returns 0x00 (0000ms, 1190ms total)
T4054 045:650 JLINK_ClrBPEx(BPHandle = 0x00000018)  returns 0x00 (0000ms, 1190ms total)
T4054 045:650 JLINK_ClrBPEx(BPHandle = 0x00000019)  returns 0x00 (0001ms, 1191ms total)
T4054 045:651 JLINK_ReadMemU32(0xE000ED30, 0x0001 Items, ...) -- CPU_ReadMem(4 bytes @ 0xE000ED30) - Data: 03 00 00 00  returns 0x01 (0001ms, 1192ms total)
T4054 045:652 JLINK_ReadMemU32(0xE0001028, 0x0001 Items, ...) -- CPU_ReadMem(4 bytes @ 0xE0001028) - Data: 00 00 00 00  returns 0x01 (0001ms, 1193ms total)
T4054 045:653 JLINK_ReadMemU32(0xE0001038, 0x0001 Items, ...) -- CPU_ReadMem(4 bytes @ 0xE0001038) - Data: 00 02 00 00  returns 0x01 (0001ms, 1194ms total)
T4054 045:654 JLINK_ReadMemU32(0xE0001048, 0x0001 Items, ...) -- CPU_ReadMem(4 bytes @ 0xE0001048) - Data: 00 00 00 00  returns 0x01 (0001ms, 1195ms total)
T4054 045:655 JLINK_ReadMemU32(0xE0001058, 0x0001 Items, ...) -- CPU_ReadMem(4 bytes @ 0xE0001058) - Data: 00 00 00 00  returns 0x01 (0001ms, 1196ms total)
T4054 045:656 JLINK_ReadReg(R0)  returns 0x02000000 (0000ms, 1196ms total)
T4054 045:656 JLINK_ReadReg(R1)  returns 0x20000088 (0000ms, 1196ms total)
T4054 045:656 JLINK_ReadReg(R2)  returns 0x00000000 (0000ms, 1196ms total)
T4054 045:656 JLINK_ReadReg(R3)  returns 0x00000000 (0000ms, 1196ms total)
T4054 045:656 JLINK_ReadReg(R4)  returns 0x00000002 (0001ms, 1197ms total)
T4054 045:657 JLINK_ReadReg(R5)  returns 0x00000001 (0000ms, 1197ms total)
T4054 045:657 JLINK_ReadReg(R6)  returns 0xA5A5A5A5 (0000ms, 1197ms total)
T4054 045:657 JLINK_ReadReg(R7)  returns 0xA5A5A5A5 (0000ms, 1197ms total)
T4054 045:657 JLINK_ReadReg(R8)  returns 0xA5A5A5A5 (0000ms, 1197ms total)
T4054 045:657 JLINK_ReadReg(R9)  returns 0xA5A5A5A5 (0000ms, 1197ms total)
T4054 045:657 JLINK_ReadReg(R10)  returns 0xA5A5A5A5 (0000ms, 1197ms total)
T4054 045:657 JLINK_ReadReg(R11)  returns 0xA5A5A5A5 (0000ms, 1197ms total)
T4054 045:657 JLINK_ReadReg(R12)  returns 0xA5A5A5A5 (0000ms, 1197ms total)
T4054 045:658 JLINK_ReadReg(R13 (SP))  returns 0x20001218 (0000ms, 1198ms total)
T4054 045:658 JLINK_ReadReg(R14)  returns 0x080037CD (0000ms, 1198ms total)
T4054 045:658 JLINK_ReadReg(R15 (PC))  returns 0x080015DC (0000ms, 1198ms total)
T4054 045:658 JLINK_ReadReg(XPSR)  returns 0x01000000 (0000ms, 1198ms total)
T4054 045:658 JLINK_ReadReg(MSP)  returns 0x20001FE8 (0000ms, 1198ms total)
T4054 045:658 JLINK_ReadReg(PSP)  returns 0x20001218 (0000ms, 1198ms total)
T4054 045:658 JLINK_ReadReg(CFBP)  returns 0x02000000 (0001ms, 1199ms total)
T330C 045:663 JLINK_ReadMemU32(0xE0001004, 0x0001 Items, ...) -- CPU_ReadMem(4 bytes @ 0xE0001004) - Data: 46 D7 83 00  returns 0x01 (0001ms, 1200ms total)
T330C 045:675 JLINK_ReadMem (0x080015DA, 0x0002 Bytes, ...) -- Read from flash cache (2 bytes @ 0x080015DA) - Data: 04 24  returns 0x00 (0000ms, 1200ms total)
T330C 045:675 JLINK_ReadMem (0x080015DC, 0x003C Bytes, ...) -- Read from flash cache (60 bytes @ 0x080015DC) - Data: 4F F4 7A 70 00 F0 08 F9 DF E7 00 00 10 B5 00 BF ...  returns 0x00 (0000ms, 1200ms total)
T4054 051:188 JLINK_Step() -- Read from flash cache (2 bytes @ 0x080015DC) -- Read from flash cache (2 bytes @ 0x080015DE) -- Simulated  returns 0x00 (0000ms, 1200ms total)
T4054 051:188 JLINK_ReadReg(R15 (PC))  returns 0x080015E0 (0000ms, 1200ms total)
T4054 051:188 JLINK_ReadReg(XPSR)  returns 0x01000000 (0000ms, 1200ms total)
T4054 051:188 JLINK_SetBPEx(Addr = 0x080015DC, Type = 0xFFFFFFF2)  returns 0x0000001A (0000ms, 1200ms total)
T4054 051:188 JLINK_SetBPEx(Addr = 0x080015DA, Type = 0xFFFFFFF2)  returns 0x0000001B (0000ms, 1200ms total)
T4054 051:188 JLINK_SetBPEx(Addr = 0x080015D2, Type = 0xFFFFFFF2)  returns 0x0000001C (0000ms, 1200ms total)
T4054 051:188 JLINK_SetBPEx(Addr = 0x080015CE, Type = 0xFFFFFFF2)  returns 0x0000001D (0000ms, 1200ms total)
T4054 051:188 JLINK_SetBPEx(Addr = 0x080015C8, Type = 0xFFFFFFF2)  returns 0x0000001E (0000ms, 1200ms total)
T4054 051:188 JLINK_SetBPEx(Addr = 0x080015C4, Type = 0xFFFFFFF2)  returns 0x0000001F (0000ms, 1200ms total)
T4054 051:189 JLINK_Go() -- CPU_WriteMem(4 bytes @ 0xE0002000) -- CPU_WriteMem(4 bytes @ 0xE0002000) -- CPU_WriteMem(4 bytes @ 0xE0002000) -- CPU_WriteMem(4 bytes @ 0xE0002000) -- CPU_WriteMem(4 bytes @ 0xE0002000) -- CPU_WriteMem(4 bytes @ 0xE0002000) -- CPU_WriteMem(4 bytes @ 0xE0001004) (0004ms, 1204ms total)
T4054 051:295 JLINK_IsHalted()  returns FALSE (0000ms, 1204ms total)
T4054 051:396 JLINK_IsHalted()  returns FALSE (0000ms, 1204ms total)
T4054 051:498 JLINK_IsHalted()  returns FALSE (0000ms, 1204ms total)
T4054 051:598 JLINK_IsHalted()  returns FALSE (0001ms, 1205ms total)
T4054 051:700 JLINK_IsHalted()  returns FALSE (0000ms, 1204ms total)
T4054 051:802 JLINK_ReadMemU32(0xE0001004, 0x0001 Items, ...) -- CPU is running -- CPU_ReadMem(4 bytes @ 0xE0001004) - Data: A7 19 21 03  returns 0x01 (0000ms, 1204ms total)
T4054 051:807 JLINK_IsHalted()  returns FALSE (0001ms, 1205ms total)
T4054 051:909 JLINK_IsHalted()  returns FALSE (0001ms, 1205ms total)
T4054 052:010 JLINK_IsHalted()  returns FALSE (0000ms, 1204ms total)
T4054 052:112 JLINK_IsHalted()  returns FALSE (0000ms, 1204ms total)
T4054 052:214 JLINK_IsHalted()  returns FALSE (0001ms, 1205ms total)
T4054 052:315 JLINK_ReadMemU32(0xE0001004, 0x0001 Items, ...) -- CPU is running -- CPU_ReadMem(4 bytes @ 0xE0001004) - Data: 4B 54 3C 05  returns 0x01 (0001ms, 1205ms total)
T4054 052:322 JLINK_IsHalted()  returns TRUE (0002ms, 1207ms total)
T4054 052:324 JLINK_Halt()  returns 0x00 (0001ms, 1206ms total)
T4054 052:325 JLINK_IsHalted()  returns TRUE (0000ms, 1206ms total)
T4054 052:325 JLINK_IsHalted()  returns TRUE (0000ms, 1206ms total)
T4054 052:325 JLINK_IsHalted()  returns TRUE (0000ms, 1206ms total)
T4054 052:325 JLINK_ReadReg(R15 (PC))  returns 0x080015C4 (0000ms, 1206ms total)
T4054 052:325 JLINK_ReadReg(XPSR)  returns 0xA1000000 (0000ms, 1206ms total)
T4054 052:325 JLINK_ClrBPEx(BPHandle = 0x0000001A)  returns 0x00 (0000ms, 1206ms total)
T4054 052:325 JLINK_ClrBPEx(BPHandle = 0x0000001B)  returns 0x00 (0000ms, 1206ms total)
T4054 052:325 JLINK_ClrBPEx(BPHandle = 0x0000001C)  returns 0x00 (0000ms, 1206ms total)
T4054 052:325 JLINK_ClrBPEx(BPHandle = 0x0000001D)  returns 0x00 (0000ms, 1206ms total)
T4054 052:325 JLINK_ClrBPEx(BPHandle = 0x0000001E)  returns 0x00 (0000ms, 1206ms total)
T4054 052:325 JLINK_ClrBPEx(BPHandle = 0x0000001F)  returns 0x00 (0000ms, 1206ms total)
T4054 052:326 JLINK_ReadMemU32(0xE000ED30, 0x0001 Items, ...) -- CPU_ReadMem(4 bytes @ 0xE000ED30) - Data: 03 00 00 00  returns 0x01 (0000ms, 1206ms total)
T4054 052:326 JLINK_ReadMemU32(0xE0001028, 0x0001 Items, ...) -- CPU_ReadMem(4 bytes @ 0xE0001028) - Data: 00 00 00 00  returns 0x01 (0001ms, 1207ms total)
T4054 052:327 JLINK_ReadMemU32(0xE0001038, 0x0001 Items, ...) -- CPU_ReadMem(4 bytes @ 0xE0001038) - Data: 00 02 00 00  returns 0x01 (0001ms, 1208ms total)
T4054 052:328 JLINK_ReadMemU32(0xE0001048, 0x0001 Items, ...) -- CPU_ReadMem(4 bytes @ 0xE0001048) - Data: 00 00 00 00  returns 0x01 (0000ms, 1208ms total)
T4054 052:328 JLINK_ReadMemU32(0xE0001058, 0x0001 Items, ...) -- CPU_ReadMem(4 bytes @ 0xE0001058) - Data: 00 00 00 00  returns 0x01 (0001ms, 1209ms total)
T4054 052:329 JLINK_ReadReg(R0)  returns 0xFFFFFFFE (0000ms, 1209ms total)
T4054 052:329 JLINK_ReadReg(R1)  returns 0x20000088 (0000ms, 1209ms total)
T4054 052:329 JLINK_ReadReg(R2)  returns 0x0000044C (0000ms, 1209ms total)
T4054 052:329 JLINK_ReadReg(R3)  returns 0x00000000 (0000ms, 1209ms total)
T4054 052:329 JLINK_ReadReg(R4)  returns 0x00000002 (0000ms, 1209ms total)
T4054 052:329 JLINK_ReadReg(R5)  returns 0x00000001 (0000ms, 1209ms total)
T4054 052:329 JLINK_ReadReg(R6)  returns 0xA5A5A5A5 (0000ms, 1209ms total)
T4054 052:329 JLINK_ReadReg(R7)  returns 0xA5A5A5A5 (0001ms, 1210ms total)
T4054 052:330 JLINK_ReadReg(R8)  returns 0xA5A5A5A5 (0000ms, 1210ms total)
T4054 052:330 JLINK_ReadReg(R9)  returns 0xA5A5A5A5 (0000ms, 1210ms total)
T4054 052:330 JLINK_ReadReg(R10)  returns 0xA5A5A5A5 (0000ms, 1210ms total)
T4054 052:330 JLINK_ReadReg(R11)  returns 0xA5A5A5A5 (0000ms, 1210ms total)
T4054 052:330 JLINK_ReadReg(R12)  returns 0xA5A5A5A5 (0000ms, 1210ms total)
T4054 052:330 JLINK_ReadReg(R13 (SP))  returns 0x20001218 (0000ms, 1210ms total)
T4054 052:330 JLINK_ReadReg(R14)  returns 0x080037CD (0000ms, 1210ms total)
T4054 052:330 JLINK_ReadReg(R15 (PC))  returns 0x080015C4 (0000ms, 1210ms total)
T4054 052:330 JLINK_ReadReg(XPSR)  returns 0xA1000000 (0000ms, 1210ms total)
T4054 052:330 JLINK_ReadReg(MSP)  returns 0x20001FE8 (0000ms, 1210ms total)
T4054 052:330 JLINK_ReadReg(PSP)  returns 0x20001218 (0000ms, 1210ms total)
T4054 052:330 JLINK_ReadReg(CFBP)  returns 0x02000000 (0000ms, 1210ms total)
T330C 052:332 JLINK_ReadMemU32(0xE0001004, 0x0001 Items, ...) -- CPU_ReadMem(4 bytes @ 0xE0001004) - Data: 4B 54 3C 05  returns 0x01 (0001ms, 1211ms total)
T330C 052:341 JLINK_ReadMem (0x080015C2, 0x0002 Bytes, ...) -- Read from flash cache (2 bytes @ 0x080015C2) - Data: 35 B1  returns 0x00 (0000ms, 1211ms total)
T330C 052:341 JLINK_ReadMem (0x080015C4, 0x003C Bytes, ...) -- Read from flash cache (60 bytes @ 0x080015C4) - Data: 04 2C 02 DA 60 06 04 0E 06 E0 01 24 04 E0 01 2C ...  returns 0x00 (0000ms, 1211ms total)
T4054 058:901 JLINK_Step() -- Read from flash cache (2 bytes @ 0x080015C4) -- Simulated  returns 0x00 (0001ms, 1212ms total)
T4054 058:902 JLINK_ReadReg(R15 (PC))  returns 0x080015C6 (0000ms, 1212ms total)
T4054 058:902 JLINK_ReadReg(XPSR)  returns 0x81000000 (0000ms, 1212ms total)
T4054 058:902 JLINK_SetBPEx(Addr = 0x080015DC, Type = 0xFFFFFFF2)  returns 0x00000020 (0000ms, 1212ms total)
T4054 058:902 JLINK_SetBPEx(Addr = 0x080015DA, Type = 0xFFFFFFF2)  returns 0x00000021 (0000ms, 1212ms total)
T4054 058:902 JLINK_SetBPEx(Addr = 0x080015D2, Type = 0xFFFFFFF2)  returns 0x00000022 (0000ms, 1212ms total)
T4054 058:902 JLINK_SetBPEx(Addr = 0x080015CE, Type = 0xFFFFFFF2)  returns 0x00000023 (0000ms, 1212ms total)
T4054 058:902 JLINK_SetBPEx(Addr = 0x080015C8, Type = 0xFFFFFFF2)  returns 0x00000024 (0000ms, 1212ms total)
T4054 058:902 JLINK_SetBPEx(Addr = 0x080015C4, Type = 0xFFFFFFF2)  returns 0x00000025 (0000ms, 1212ms total)
T4054 058:902 JLINK_Go() -- CPU_WriteMem(4 bytes @ 0xE0002000) -- CPU_WriteMem(4 bytes @ 0xE0002000) -- CPU_WriteMem(4 bytes @ 0xE0002000) -- CPU_WriteMem(4 bytes @ 0xE0002000) -- CPU_WriteMem(4 bytes @ 0xE0002000) -- CPU_WriteMem(4 bytes @ 0xE0002000) -- CPU_WriteMem(4 bytes @ 0xE0001004) (0004ms, 1216ms total)
T4054 059:006 JLINK_IsHalted()  returns TRUE (0002ms, 1218ms total)
T4054 059:008 JLINK_Halt()  returns 0x00 (0001ms, 1217ms total)
T4054 059:009 JLINK_IsHalted()  returns TRUE (0000ms, 1217ms total)
T4054 059:009 JLINK_IsHalted()  returns TRUE (0000ms, 1217ms total)
T4054 059:009 JLINK_IsHalted()  returns TRUE (0000ms, 1217ms total)
T4054 059:009 JLINK_ReadReg(R15 (PC))  returns 0x080015C8 (0000ms, 1217ms total)
T4054 059:009 JLINK_ReadReg(XPSR)  returns 0x81000000 (0000ms, 1217ms total)
T4054 059:009 JLINK_ClrBPEx(BPHandle = 0x00000020)  returns 0x00 (0000ms, 1217ms total)
T4054 059:009 JLINK_ClrBPEx(BPHandle = 0x00000021)  returns 0x00 (0000ms, 1217ms total)
T4054 059:009 JLINK_ClrBPEx(BPHandle = 0x00000022)  returns 0x00 (0000ms, 1217ms total)
T4054 059:009 JLINK_ClrBPEx(BPHandle = 0x00000023)  returns 0x00 (0000ms, 1217ms total)
T4054 059:009 JLINK_ClrBPEx(BPHandle = 0x00000024)  returns 0x00 (0000ms, 1217ms total)
T4054 059:009 JLINK_ClrBPEx(BPHandle = 0x00000025)  returns 0x00 (0000ms, 1217ms total)
T4054 059:009 JLINK_ReadMemU32(0xE000ED30, 0x0001 Items, ...) -- CPU_ReadMem(4 bytes @ 0xE000ED30) - Data: 03 00 00 00  returns 0x01 (0001ms, 1218ms total)
T4054 059:010 JLINK_ReadMemU32(0xE0001028, 0x0001 Items, ...) -- CPU_ReadMem(4 bytes @ 0xE0001028) - Data: 00 00 00 00  returns 0x01 (0001ms, 1219ms total)
T4054 059:011 JLINK_ReadMemU32(0xE0001038, 0x0001 Items, ...) -- CPU_ReadMem(4 bytes @ 0xE0001038) - Data: 00 02 00 00  returns 0x01 (0001ms, 1220ms total)
T4054 059:012 JLINK_ReadMemU32(0xE0001048, 0x0001 Items, ...) -- CPU_ReadMem(4 bytes @ 0xE0001048) - Data: 00 00 00 00  returns 0x01 (0000ms, 1220ms total)
T4054 059:012 JLINK_ReadMemU32(0xE0001058, 0x0001 Items, ...) -- CPU_ReadMem(4 bytes @ 0xE0001058) - Data: 00 00 00 00  returns 0x01 (0001ms, 1221ms total)
T4054 059:013 JLINK_ReadReg(R0)  returns 0xFFFFFFFE (0000ms, 1221ms total)
T4054 059:013 JLINK_ReadReg(R1)  returns 0x20000088 (0000ms, 1221ms total)
T4054 059:013 JLINK_ReadReg(R2)  returns 0x0000044C (0000ms, 1221ms total)
T4054 059:013 JLINK_ReadReg(R3)  returns 0x00000000 (0001ms, 1222ms total)
T4054 059:014 JLINK_ReadReg(R4)  returns 0x00000002 (0000ms, 1222ms total)
T4054 059:014 JLINK_ReadReg(R5)  returns 0x00000001 (0000ms, 1222ms total)
T4054 059:014 JLINK_ReadReg(R6)  returns 0xA5A5A5A5 (0000ms, 1222ms total)
T4054 059:014 JLINK_ReadReg(R7)  returns 0xA5A5A5A5 (0000ms, 1222ms total)
T4054 059:014 JLINK_ReadReg(R8)  returns 0xA5A5A5A5 (0000ms, 1222ms total)
T4054 059:014 JLINK_ReadReg(R9)  returns 0xA5A5A5A5 (0000ms, 1222ms total)
T4054 059:014 JLINK_ReadReg(R10)  returns 0xA5A5A5A5 (0000ms, 1222ms total)
T4054 059:014 JLINK_ReadReg(R11)  returns 0xA5A5A5A5 (0000ms, 1222ms total)
T4054 059:014 JLINK_ReadReg(R12)  returns 0xA5A5A5A5 (0000ms, 1222ms total)
T4054 059:014 JLINK_ReadReg(R13 (SP))  returns 0x20001218 (0000ms, 1222ms total)
T4054 059:014 JLINK_ReadReg(R14)  returns 0x080037CD (0000ms, 1222ms total)
T4054 059:014 JLINK_ReadReg(R15 (PC))  returns 0x080015C8 (0000ms, 1222ms total)
T4054 059:014 JLINK_ReadReg(XPSR)  returns 0x81000000 (0000ms, 1222ms total)
T4054 059:014 JLINK_ReadReg(MSP)  returns 0x20001FE8 (0000ms, 1222ms total)
T4054 059:014 JLINK_ReadReg(PSP)  returns 0x20001218 (0001ms, 1223ms total)
T4054 059:015 JLINK_ReadReg(CFBP)  returns 0x02000000 (0000ms, 1223ms total)
T330C 059:017 JLINK_ReadMemU32(0xE0001004, 0x0001 Items, ...) -- CPU_ReadMem(4 bytes @ 0xE0001004) - Data: 44 55 3C 05  returns 0x01 (0001ms, 1224ms total)
T330C 059:036 JLINK_ReadMem (0x080015C2, 0x0002 Bytes, ...) -- Read from flash cache (2 bytes @ 0x080015C2) - Data: 35 B1  returns 0x00 (0000ms, 1224ms total)
T330C 059:036 JLINK_ReadMem (0x080015C4, 0x003C Bytes, ...) -- Read from flash cache (60 bytes @ 0x080015C4) - Data: 04 2C 02 DA 60 06 04 0E 06 E0 01 24 04 E0 01 2C ...  returns 0x00 (0000ms, 1224ms total)
T4054 060:546 JLINK_Step() -- Read from flash cache (2 bytes @ 0x080015C8) -- Simulated  returns 0x00 (0001ms, 1225ms total)
T4054 060:547 JLINK_ReadReg(R15 (PC))  returns 0x080015CA (0000ms, 1225ms total)
T4054 060:547 JLINK_ReadReg(XPSR)  returns 0x01000000 (0000ms, 1225ms total)
T4054 060:547 JLINK_SetBPEx(Addr = 0x080015DC, Type = 0xFFFFFFF2)  returns 0x00000026 (0000ms, 1225ms total)
T4054 060:547 JLINK_SetBPEx(Addr = 0x080015DA, Type = 0xFFFFFFF2)  returns 0x00000027 (0000ms, 1225ms total)
T4054 060:547 JLINK_SetBPEx(Addr = 0x080015D2, Type = 0xFFFFFFF2)  returns 0x00000028 (0000ms, 1225ms total)
T4054 060:547 JLINK_SetBPEx(Addr = 0x080015CE, Type = 0xFFFFFFF2)  returns 0x00000029 (0000ms, 1225ms total)
T4054 060:547 JLINK_SetBPEx(Addr = 0x080015C8, Type = 0xFFFFFFF2)  returns 0x0000002A (0000ms, 1225ms total)
T4054 060:547 JLINK_SetBPEx(Addr = 0x080015C4, Type = 0xFFFFFFF2)  returns 0x0000002B (0000ms, 1225ms total)
T4054 060:547 JLINK_Go() -- CPU_WriteMem(4 bytes @ 0xE0002000) -- CPU_WriteMem(4 bytes @ 0xE0002000) -- CPU_WriteMem(4 bytes @ 0xE0002000) -- CPU_WriteMem(4 bytes @ 0xE0002000) -- CPU_WriteMem(4 bytes @ 0xE0002000) -- CPU_WriteMem(4 bytes @ 0xE0002000) -- CPU_WriteMem(4 bytes @ 0xE0001004) (0005ms, 1230ms total)
T4054 060:653 JLINK_IsHalted()  returns TRUE (0003ms, 1233ms total)
T4054 060:656 JLINK_Halt()  returns 0x00 (0000ms, 1230ms total)
T4054 060:656 JLINK_IsHalted()  returns TRUE (0000ms, 1230ms total)
T4054 060:656 JLINK_IsHalted()  returns TRUE (0000ms, 1230ms total)
T4054 060:656 JLINK_IsHalted()  returns TRUE (0000ms, 1230ms total)
T4054 060:656 JLINK_ReadReg(R15 (PC))  returns 0x080015DC (0000ms, 1230ms total)
T4054 060:656 JLINK_ReadReg(XPSR)  returns 0x01000000 (0000ms, 1230ms total)
T4054 060:656 JLINK_ClrBPEx(BPHandle = 0x00000026)  returns 0x00 (0000ms, 1230ms total)
T4054 060:656 JLINK_ClrBPEx(BPHandle = 0x00000027)  returns 0x00 (0000ms, 1230ms total)
T4054 060:656 JLINK_ClrBPEx(BPHandle = 0x00000028)  returns 0x00 (0000ms, 1230ms total)
T4054 060:656 JLINK_ClrBPEx(BPHandle = 0x00000029)  returns 0x00 (0000ms, 1230ms total)
T4054 060:656 JLINK_ClrBPEx(BPHandle = 0x0000002A)  returns 0x00 (0000ms, 1230ms total)
T4054 060:656 JLINK_ClrBPEx(BPHandle = 0x0000002B)  returns 0x00 (0000ms, 1230ms total)
T4054 060:656 JLINK_ReadMemU32(0xE000ED30, 0x0001 Items, ...) -- CPU_ReadMem(4 bytes @ 0xE000ED30) - Data: 03 00 00 00  returns 0x01 (0001ms, 1231ms total)
T4054 060:657 JLINK_ReadMemU32(0xE0001028, 0x0001 Items, ...) -- CPU_ReadMem(4 bytes @ 0xE0001028) - Data: 00 00 00 00  returns 0x01 (0001ms, 1232ms total)
T4054 060:658 JLINK_ReadMemU32(0xE0001038, 0x0001 Items, ...) -- CPU_ReadMem(4 bytes @ 0xE0001038) - Data: 00 02 00 00  returns 0x01 (0000ms, 1232ms total)
T4054 060:658 JLINK_ReadMemU32(0xE0001048, 0x0001 Items, ...) -- CPU_ReadMem(4 bytes @ 0xE0001048) - Data: 00 00 00 00  returns 0x01 (0001ms, 1233ms total)
T4054 060:659 JLINK_ReadMemU32(0xE0001058, 0x0001 Items, ...) -- CPU_ReadMem(4 bytes @ 0xE0001058) - Data: 00 00 00 00  returns 0x01 (0001ms, 1234ms total)
T4054 060:660 JLINK_ReadReg(R0)  returns 0x04000000 (0000ms, 1234ms total)
T4054 060:660 JLINK_ReadReg(R1)  returns 0x20000088 (0000ms, 1234ms total)
T4054 060:660 JLINK_ReadReg(R2)  returns 0x0000044C (0000ms, 1234ms total)
T4054 060:660 JLINK_ReadReg(R3)  returns 0x00000000 (0000ms, 1234ms total)
T4054 060:660 JLINK_ReadReg(R4)  returns 0x00000004 (0000ms, 1234ms total)
T4054 060:660 JLINK_ReadReg(R5)  returns 0x00000001 (0000ms, 1234ms total)
T4054 060:660 JLINK_ReadReg(R6)  returns 0xA5A5A5A5 (0000ms, 1234ms total)
T4054 060:660 JLINK_ReadReg(R7)  returns 0xA5A5A5A5 (0000ms, 1234ms total)
T4054 060:660 JLINK_ReadReg(R8)  returns 0xA5A5A5A5 (0000ms, 1234ms total)
T4054 060:660 JLINK_ReadReg(R9)  returns 0xA5A5A5A5 (0000ms, 1234ms total)
T4054 060:660 JLINK_ReadReg(R10)  returns 0xA5A5A5A5 (0000ms, 1234ms total)
T4054 060:660 JLINK_ReadReg(R11)  returns 0xA5A5A5A5 (0000ms, 1234ms total)
T4054 060:660 JLINK_ReadReg(R12)  returns 0xA5A5A5A5 (0000ms, 1234ms total)
T4054 060:660 JLINK_ReadReg(R13 (SP))  returns 0x20001218 (0000ms, 1234ms total)
T4054 060:660 JLINK_ReadReg(R14)  returns 0x080037CD (0000ms, 1234ms total)
T4054 060:660 JLINK_ReadReg(R15 (PC))  returns 0x080015DC (0001ms, 1235ms total)
T4054 060:661 JLINK_ReadReg(XPSR)  returns 0x01000000 (0000ms, 1235ms total)
T4054 060:661 JLINK_ReadReg(MSP)  returns 0x20001FE8 (0000ms, 1235ms total)
T4054 060:661 JLINK_ReadReg(PSP)  returns 0x20001218 (0000ms, 1235ms total)
T4054 060:661 JLINK_ReadReg(CFBP)  returns 0x02000000 (0000ms, 1235ms total)
T330C 060:663 JLINK_ReadMemU32(0xE0001004, 0x0001 Items, ...) -- CPU_ReadMem(4 bytes @ 0xE0001004) - Data: 41 56 3C 05  returns 0x01 (0000ms, 1235ms total)
T330C 060:672 JLINK_ReadMem (0x080015DA, 0x0002 Bytes, ...) -- Read from flash cache (2 bytes @ 0x080015DA) - Data: 04 24  returns 0x00 (0000ms, 1235ms total)
T330C 060:672 JLINK_ReadMem (0x080015DC, 0x003C Bytes, ...) -- Read from flash cache (60 bytes @ 0x080015DC) - Data: 4F F4 7A 70 00 F0 08 F9 DF E7 00 00 10 B5 00 BF ...  returns 0x00 (0001ms, 1236ms total)
T4054 068:581 JLINK_Step() -- Read from flash cache (2 bytes @ 0x080015DC) -- Read from flash cache (2 bytes @ 0x080015DE) -- Simulated  returns 0x00 (0001ms, 1237ms total)
T4054 068:582 JLINK_ReadReg(R15 (PC))  returns 0x080015E0 (0000ms, 1237ms total)
T4054 068:582 JLINK_ReadReg(XPSR)  returns 0x01000000 (0000ms, 1237ms total)
T4054 068:582 JLINK_SetBPEx(Addr = 0x080015DC, Type = 0xFFFFFFF2)  returns 0x0000002C (0000ms, 1237ms total)
